T2050 000:005.565   SEGGER J-Link V6.54c Log File
T2050 000:005.688   DLL Compiled: Nov  7 2019 17:01:02
T2050 000:005.693   Logging started @ 2026-09-24 05:20
T2050 000:005.702 JLINK_SetWarnOutHandler(...)
T2050 000:005.707 - 0.008ms
T2050 000:005.715 JLINK_OpenEx(...)
T2050 000:008.344   Firmware: J-Link V9 compiled May  7 2021 16:26:12
T2050 000:022.523   Hardware: V9.40
T2050 000:022.550   S/N: 69406837
T2050 000:022.558   OEM: SEGGER
T2050 000:022.567   Feature(s): RDI, GDB, FlashDL, FlashBP, JFlash
T2050 000:024.633   TELNET listener socket opened on port 19021
T2050 000:087.977   WEBSRV Starting webserver
T2050 000:089.122   WEBSRV Webserver running on local port 19080
T2050 000:089.140 - 83.427ms returns "O.K."
T2050 000:089.161 JLINK_GetEmuCaps()
T2050 000:089.168 - 0.009ms returns 0xB9FF7BBF
T2050 000:089.176 JLINK_TIF_GetAvailable(...)
T2050 000:090.202 - 1.036ms
T2050 000:090.226 JLINK_SetErrorOutHandler(...)
T2050 000:090.232 - 0.007ms
T2050 000:090.248 JLINK_ExecCommand("ProjectFile = "D:\32 watch project\WatchV1\MDK-ARM\JLinkSettings.ini"", ...). 
T2050 000:092.036   Ref file found at: D:\Keil_v5\ARM\Segger\JLinkDevices.ref
T2050 000:092.129   REF file references invalid XML file: d:\JLink\JLinkDevices.xml
T2050 000:092.243 - 2.003ms returns 0x00
T2050 000:095.750 JLINK_ExecCommand("Device = STM32F411CEUx", ...). 
T2050 000:098.344   Device "STM32F411CE" selected.
T2050 000:098.732 - 2.967ms returns 0x00
T2050 000:098.745 JLINK_ExecCommand("DisableConnectionTimeout", ...). 
T2050 000:098.754 - 0.005ms returns 0x01
T2050 000:098.761 JLINK_GetHardwareVersion()
T2050 000:098.766 - 0.007ms returns 0x16F30
T2050 000:098.776 JLINK_GetDLLVersion()  returns 65403
T2050 000:098.785 JLINK_GetFirmwareString(...)
T2050 000:098.790 - 0.007ms
T2050 000:104.101 JLINK_GetDLLVersion()  returns 65403
T2050 000:104.119 JLINK_GetCompileDateTime()
T2050 000:104.123 - 0.006ms
T2050 000:105.982 JLINK_GetFirmwareString(...)
T2050 000:105.997 - 0.016ms
T2050 000:107.783 JLINK_GetHardwareVersion()
T2050 000:107.797 - 0.016ms returns 0x16F30
T2050 000:115.612 JLINK_TIF_Select(JLINKARM_TIF_SWD)
T2050 000:117.885 - 2.290ms returns 0x00
T2050 000:118.027 JLINK_SetSpeed(5000)
T2050 000:118.338 - 0.314ms
T2050 000:118.348 JLINK_GetId()
T2050 000:121.901   Found SW-DP with ID 0x2BA01477
T2050 000:151.155   Found SW-DP with ID 0x2BA01477
T2050 000:160.721   Scanning AP map to find all available APs
T2050 000:169.239   AP[1]: Stopped AP scan as end of AP map has been reached
T2050 000:171.246   AP[0]: AHB-AP (IDR: 0x24770011)
T2050 000:173.660   Iterating through AP map to find AHB-AP to use
T2050 000:185.611   AP[0]: Core found
T2050 000:187.562   AP[0]: AHB-AP ROM base: 0xE00FF000
T2050 000:194.048   CPUID register: 0x410FC241. Implementer code: 0x41 (ARM)
T2050 000:195.882   Found Cortex-M4 r0p1, Little endian.
T2050 000:297.748    -- Max. mem block: 0x00010E08
T2050 000:297.821    -- CPU_ReadMem(4 bytes @ 0xE000EDF0)
T2050 000:298.890    -- CPU_WriteMem(4 bytes @ 0xE000EDF0)
T2050 000:299.559    -- CPU_ReadMem(4 bytes @ 0xE0002000)
T2050 000:306.355   FPUnit: 6 code (BP) slots and 2 literal slots
T2050 000:306.402    -- CPU_ReadMem(4 bytes @ 0xE000EDFC)
T2050 000:307.102    -- CPU_WriteMem(4 bytes @ 0xE000EDFC)
T2050 000:307.722    -- CPU_ReadMem(4 bytes @ 0xE0001000)
T2050 000:308.310    -- CPU_WriteMem(4 bytes @ 0xE0001000)
T2050 000:308.958    -- CPU_ReadMem(4 bytes @ 0xE000ED88)
T2050 000:309.566    -- CPU_WriteMem(4 bytes @ 0xE000ED88)
T2050 000:310.368    -- CPU_ReadMem(4 bytes @ 0xE000ED88)
T2050 000:311.248    -- CPU_WriteMem(4 bytes @ 0xE000ED88)
T2050 000:316.466   CoreSight components:
T2050 000:320.484   ROMTbl[0] @ E00FF000
T2050 000:320.516    -- CPU_ReadMem(16 bytes @ 0xE00FF000)
T2050 000:321.280    -- CPU_ReadMem(16 bytes @ 0xE000EFF0)
T2050 000:321.958    -- CPU_ReadMem(16 bytes @ 0xE000EFE0)
T2050 000:325.937   ROMTbl[0][0]: E000E000, CID: B105E00D, PID: 000BB00C SCS-M7
T2050 000:325.964    -- CPU_ReadMem(16 bytes @ 0xE0001FF0)
T2050 000:326.656    -- CPU_ReadMem(16 bytes @ 0xE0001FE0)
T2050 000:329.635   ROMTbl[0][1]: E0001000, CID: B105E00D, PID: 003BB002 DWT
T2050 000:329.656    -- CPU_ReadMem(16 bytes @ 0xE0002FF0)
T2050 000:330.384    -- CPU_ReadMem(16 bytes @ 0xE0002FE0)
T2050 000:333.473   ROMTbl[0][2]: E0002000, CID: B105E00D, PID: 002BB003 FPB
T2050 000:333.494    -- CPU_ReadMem(16 bytes @ 0xE0000FF0)
T2050 000:334.143    -- CPU_ReadMem(16 bytes @ 0xE0000FE0)
T2050 000:336.536   ROMTbl[0][3]: E0000000, CID: B105E00D, PID: 003BB001 ITM
T2050 000:336.554    -- CPU_ReadMem(16 bytes @ 0xE00FF010)
T2050 000:337.253    -- CPU_ReadMem(16 bytes @ 0xE0040FF0)
T2050 000:337.900    -- CPU_ReadMem(16 bytes @ 0xE0040FE0)
T2050 000:340.415   ROMTbl[0][4]: E0040000, CID: B105900D, PID: 000BB9A1 TPIU
T2050 000:340.433    -- CPU_ReadMem(16 bytes @ 0xE0041FF0)
T2050 000:341.131    -- CPU_ReadMem(16 bytes @ 0xE0041FE0)
T2050 000:344.014   ROMTbl[0][5]: E0041000, CID: B105900D, PID: 000BB925 ETM
T2050 000:345.403 - 227.069ms   returns 0x2BA01477
T2050 000:345.433 JLINK_GetDLLVersion()  returns 65403
T2050 000:345.490 JLINK_CORE_GetFound()
T2050 000:345.495 - 0.008ms returns 0xE0000FF
T2050 000:345.508 JLINK_GetDebugInfo(0x100 = JLINKARM_ROM_TABLE_ADDR_INDEX)
T2050 000:345.515   Value=0xE00FF000
T2050 000:345.521 - 0.014ms returns 0x00
T2050 000:347.358 JLINK_GetDebugInfo(0x100 = JLINKARM_ROM_TABLE_ADDR_INDEX)
T2050 000:347.373   Value=0xE00FF000
T2050 000:347.380 - 0.024ms returns 0x00
T2050 000:347.386 JLINK_GetDebugInfo(0x101 = JLINKARM_DEBUG_INFO_ETM_ADDR_INDEX)
T2050 000:347.391   Value=0xE0041000
T2050 000:347.397 - 0.013ms returns 0x00
T2050 000:347.409   JLINK_ReadMemEx(0xE0041FD0, 0x0020 Bytes, ..., Flags = 0x02000004)
T2050 000:347.450    -- CPU_ReadMem(32 bytes @ 0xE0041FD0)
T2050 000:348.180   Data:  04 00 00 00 00 00 00 00 00 00 00 00 00 00 00 00 ...
T2050 000:348.188 - 0.783ms returns 0x20
T2050 000:348.196 JLINK_GetDebugInfo(0x102 = JLINKARM_DEBUG_INFO_MTB_ADDR_INDEX)
T2050 000:348.200   Value=0x00000000
T2050 000:348.207 - 0.013ms returns 0x00
T2050 000:348.212 JLINK_GetDebugInfo(0x103 = JLINKARM_DEBUG_INFO_TPIU_ADDR_INDEX)
T2050 000:348.217   Value=0xE0040000
T2050 000:348.223 - 0.012ms returns 0x00
T2050 000:348.228 JLINK_GetDebugInfo(0x104 = JLINKARM_DEBUG_INFO_ITM_ADDR_INDEX)
T2050 000:348.233   Value=0xE0000000
T2050 000:348.239 - 0.012ms returns 0x00
T2050 000:348.249 JLINK_GetDebugInfo(0x105 = JLINKARM_DEBUG_INFO_DWT_ADDR_INDEX)
T2050 000:348.253   Value=0xE0001000
T2050 000:348.260 - 0.012ms returns 0x00
T2050 000:348.265 JLINK_GetDebugInfo(0x106 = JLINKARM_DEBUG_INFO_FPB_ADDR_INDEX)
T2050 000:348.270   Value=0xE0002000
T2050 000:348.276 - 0.013ms returns 0x00
T2050 000:348.282 JLINK_GetDebugInfo(0x107 = JLINKARM_DEBUG_INFO_NVIC_ADDR_INDEX)
T2050 000:348.286   Value=0xE000E000
T2050 000:348.293 - 0.013ms returns 0x00
T2050 000:348.298 JLINK_GetDebugInfo(0x10C = JLINKARM_DEBUG_INFO_DBG_ADDR_INDEX)
T2050 000:348.302   Value=0xE000EDF0
T2050 000:348.309 - 0.012ms returns 0x00
T2050 000:348.315   JLINK_ReadMemU32(0xE000EF40, 0x0001 Items, ...)
T2050 000:348.331    -- CPU_ReadMem(4 bytes @ 0xE000EF40)
T2050 000:348.864   Data:  21 00 11 10
T2050 000:348.872 - 0.559ms returns 1
T2050 000:348.878   JLINK_ReadMemU32(0xE000EF44, 0x0001 Items, ...)
T2050 000:348.887    -- CPU_ReadMem(4 bytes @ 0xE000EF44)
T2050 000:349.423   Data:  11 00 00 11
T2050 000:349.430 - 0.554ms returns 1
T2050 000:349.437   JLINK_ReadMemU32(0xE000ED00, 0x0001 Items, ...)
T2050 000:349.445    -- CPU_ReadMem(4 bytes @ 0xE000ED00)
T2050 000:349.927   Data:  41 C2 0F 41
T2050 000:349.937    - CPUID
T2050 000:349.943 - 0.508ms returns 1
T2050 000:349.950 JLINK_GetDebugInfo(0x10F = JLINKARM_DEBUG_INFO_HAS_CORTEX_M_SECURITY_EXT_INDEX)
T2050 000:349.954   Value=0x00000000
T2050 000:349.961 - 0.012ms returns 0x00
T2050 000:349.968 JLINK_SetResetType(JLINKARM_CM3_RESET_TYPE_NORMAL)
T2050 000:349.973 - 0.007ms returns JLINKARM_CM3_RESET_TYPE_NORMAL
T2050 000:349.979 JLINK_Reset()
T2050 000:349.991   CPU is running
T2050 000:350.003    -- CPU_WriteMem(4 bytes @ 0xE000EDF0)
T2050 000:350.560   CPU is running
T2050 000:350.569    -- CPU_WriteMem(4 bytes @ 0xE000EDFC)
T2050 000:353.033   Reset: Halt core after reset via DEMCR.VC_CORERESET.
T2050 000:355.788   Reset: Reset device via AIRCR.SYSRESETREQ.
T2050 000:355.810   CPU is running
T2050 000:355.818    -- CPU_WriteMem(4 bytes @ 0xE000ED0C)
T2050 000:409.931    -- CPU_ReadMem(4 bytes @ 0xE000EDF0)
T2050 000:411.344    -- CPU_ReadMem(4 bytes @ 0xE000EDF0)
T2050 000:412.122   CPU is running
T2050 000:412.188    -- CPU_WriteMem(4 bytes @ 0xE000EDF0)
T2050 000:412.977   CPU is running
T2050 000:413.023    -- CPU_WriteMem(4 bytes @ 0xE000EDFC)
T2050 000:419.768    -- CPU_ReadMem(4 bytes @ 0xE000EDF0)
T2050 000:424.567    -- CPU_WriteMem(4 bytes @ 0xE0002000)
T2050 000:425.360    -- CPU_ReadMem(4 bytes @ 0xE000EDFC)
T2050 000:426.166    -- CPU_ReadMem(4 bytes @ 0xE0001000)
T2050 000:426.917 - 76.970ms
T2050 000:427.018 JLINK_Halt()
T2050 000:427.038 - 0.028ms returns 0x00
T2050 000:427.065   JLINK_ReadMemU32(0xE000EDF0, 0x0001 Items, ...)
T2050 000:427.114    -- CPU_ReadMem(4 bytes @ 0xE000EDF0)
T2050 000:427.973   Data:  03 00 03 00
T2050 000:428.032    - DHCSR
T2050 000:428.057 - 1.003ms returns 1
T2050 000:428.116   JLINK_WriteU32(0xE000EDF0, 0xA05F0003)
T2050 000:428.143    - DHCSR
T2050 000:428.215    -- CPU_WriteMem(4 bytes @ 0xE000EDF0)
T2050 000:429.033 - 1.035ms returns 0
T2050 000:429.242   JLINK_WriteU32(0xE000EDFC, 0x01000000)
T2050 000:429.272    - DEMCR
T2050 000:429.325    -- CPU_WriteMem(4 bytes @ 0xE000EDFC)
T2050 000:430.153 - 0.942ms returns 0
T2050 000:446.337 JLINK_GetHWStatus(...)
T2050 000:446.753 - 0.430ms returns 0x00
T2050 000:453.359 JLINK_GetNumBPUnits(Type = 0xFFFFFF00)
T2050 000:453.379 - 0.022ms returns 0x06
T2050 000:453.386 JLINK_GetNumBPUnits(Type = 0xF0)
T2050 000:453.390 - 0.007ms returns 0x2000
T2050 000:453.396 JLINK_GetNumWPUnits()
T2050 000:453.401 - 0.006ms returns 0x04
T2050 000:458.849 JLINK_GetSpeed()
T2050 000:458.865 - 0.018ms returns 0xFA0
T2050 000:462.793   JLINK_ReadMemU32(0xE000E004, 0x0001 Items, ...)
T2050 000:462.828    -- CPU_ReadMem(4 bytes @ 0xE000E004)
T2050 000:463.383   Data:  02 00 00 00
T2050 000:463.396 - 0.605ms returns 1
T2050 000:463.404   JLINK_ReadMemU32(0xE000E004, 0x0001 Items, ...)
T2050 000:463.416    -- CPU_ReadMem(4 bytes @ 0xE000E004)
T2050 000:463.910   Data:  02 00 00 00
T2050 000:463.917 - 0.515ms returns 1
T2050 000:463.924 JLINK_WriteMemEx(0xE0001000, 0x001C Bytes, ..., Flags = 0x02000004)
T2050 000:463.929   Data:  01 00 00 00 00 00 00 00 00 00 00 00 00 00 00 00 ...
T2050 000:464.174    -- CPU_WriteMem(28 bytes @ 0xE0001000)
T2050 000:465.128 - 1.208ms returns 0x1C
T2050 000:465.141 JLINK_Halt()
T2050 000:465.146 - 0.007ms returns 0x00
T2050 000:465.152 JLINK_IsHalted()
T2050 000:465.157 - 0.007ms returns TRUE
T2050 000:467.844 JLINK_WriteMem(0x20000000, 0x0184 Bytes, ...)
T2050 000:467.856   Data:  00 BE 0A E0 0D 78 2D 06 68 40 08 24 40 00 00 D3 ...
T2050 000:468.121    -- CPU_WriteMem(388 bytes @ 0x20000000)
T2050 000:470.854 - 3.019ms returns 0x184
T2050 000:470.897 JLINK_WriteReg(R0, 0x08000000)
T2050 000:470.906 - 0.011ms returns 0x00
T2050 000:470.912 JLINK_WriteReg(R1, 0x017D7840)
T2050 000:470.917 - 0.007ms returns 0x00
T2050 000:470.923 JLINK_WriteReg(R2, 0x00000001)
T2050 000:470.928 - 0.006ms returns 0x00
T2050 000:470.933 JLINK_WriteReg(R3, 0x00000000)
T2050 000:470.938 - 0.006ms returns 0x00
T2050 000:470.944 JLINK_WriteReg(R4, 0x00000000)
T2050 000:470.948 - 0.006ms returns 0x00
T2050 000:470.954 JLINK_WriteReg(R5, 0x00000000)
T2050 000:470.958 - 0.006ms returns 0x00
T2050 000:470.964 JLINK_WriteReg(R6, 0x00000000)
T2050 000:470.969 - 0.006ms returns 0x00
T2050 000:470.975 JLINK_WriteReg(R7, 0x00000000)
T2050 000:470.979 - 0.006ms returns 0x00
T2050 000:470.985 JLINK_WriteReg(R8, 0x00000000)
T2050 000:470.994 - 0.011ms returns 0x00
T2050 000:471.000 JLINK_WriteReg(R9, 0x20000180)
T2050 000:471.005 - 0.006ms returns 0x00
T2050 000:471.010 JLINK_WriteReg(R10, 0x00000000)
T2050 000:471.021 - 0.013ms returns 0x00
T2050 000:471.027 JLINK_WriteReg(R11, 0x00000000)
T2050 000:471.032 - 0.007ms returns 0x00
T2050 000:471.038 JLINK_WriteReg(R12, 0x00000000)
T2050 000:471.042 - 0.007ms returns 0x00
T2050 000:471.048 JLINK_WriteReg(R13 (SP), 0x20001000)
T2050 000:471.054 - 0.007ms returns 0x00
T2050 000:471.059 JLINK_WriteReg(R14, 0x20000001)
T2050 000:471.064 - 0.007ms returns 0x00
T2050 000:471.070 JLINK_WriteReg(R15 (PC), 0x20000054)
T2050 000:471.075 - 0.007ms returns 0x00
T2050 000:471.081 JLINK_WriteReg(XPSR, 0x01000000)
T2050 000:471.085 - 0.007ms returns 0x00
T2050 000:471.091 JLINK_WriteReg(MSP, 0x20001000)
T2050 000:471.096 - 0.007ms returns 0x00
T2050 000:471.102 JLINK_WriteReg(PSP, 0x20001000)
T2050 000:471.106 - 0.007ms returns 0x00
T2050 000:471.112 JLINK_WriteReg(CFBP, 0x00000000)
T2050 000:471.117 - 0.006ms returns 0x00
T2050 000:471.123   JLINK_SetBPEx(Addr = 0x20000000, Type = 0xFFFFFFF2)
T2050 000:471.133    -- CPU_ReadMem(2 bytes @ 0x20000000)
T2050 000:471.631 - 0.514ms returns 0x00000001
T2050 000:471.643 JLINK_Go()
T2050 000:471.651    -- CPU_WriteMem(2 bytes @ 0x20000000)
T2050 000:472.193    -- CPU_ReadMem(4 bytes @ 0xE0001000)
T2050 000:472.703    -- CPU_WriteMem(4 bytes @ 0xE0002008)
T2050 000:472.716    -- CPU_WriteMem(4 bytes @ 0xE000200C)
T2050 000:472.723    -- CPU_WriteMem(4 bytes @ 0xE0002010)
T2050 000:472.729    -- CPU_WriteMem(4 bytes @ 0xE0002014)
T2050 000:472.736    -- CPU_WriteMem(4 bytes @ 0xE0002018)
T2050 000:472.743    -- CPU_WriteMem(4 bytes @ 0xE000201C)
T2050 000:474.346    -- CPU_WriteMem(4 bytes @ 0xE0001004)
T2050 000:478.260 - 6.632ms
T2050 000:478.282 JLINK_IsHalted()
T2050 000:481.247    -- CPU_ReadMem(2 bytes @ 0x20000000)
T2050 000:481.745 - 3.475ms returns TRUE
T2050 000:481.772 JLINK_ReadReg(R15 (PC))
T2050 000:481.781 - 0.011ms returns 0x20000000
T2050 000:481.790 JLINK_ClrBPEx(BPHandle = 0x00000001)
T2050 000:481.796 - 0.008ms returns 0x00
T2050 000:481.850 JLINK_ReadReg(R0)
T2050 000:481.856 - 0.009ms returns 0x00000000
T2050 000:482.212 JLINK_WriteReg(R0, 0x08000000)
T2050 000:482.226 - 0.016ms returns 0x00
T2050 000:482.232 JLINK_WriteReg(R1, 0x00004000)
T2050 000:482.237 - 0.007ms returns 0x00
T2050 000:482.243 JLINK_WriteReg(R2, 0x000000FF)
T2050 000:482.248 - 0.007ms returns 0x00
T2050 000:482.254 JLINK_WriteReg(R3, 0x00000000)
T2050 000:482.258 - 0.006ms returns 0x00
T2050 000:482.264 JLINK_WriteReg(R4, 0x00000000)
T2050 000:482.269 - 0.006ms returns 0x00
T2050 000:482.274 JLINK_WriteReg(R5, 0x00000000)
T2050 000:482.279 - 0.007ms returns 0x00
T2050 000:482.285 JLINK_WriteReg(R6, 0x00000000)
T2050 000:482.290 - 0.007ms returns 0x00
T2050 000:482.296 JLINK_WriteReg(R7, 0x00000000)
T2050 000:482.300 - 0.006ms returns 0x00
T2050 000:482.306 JLINK_WriteReg(R8, 0x00000000)
T2050 000:482.310 - 0.006ms returns 0x00
T2050 000:482.316 JLINK_WriteReg(R9, 0x20000180)
T2050 000:482.321 - 0.007ms returns 0x00
T2050 000:482.327 JLINK_WriteReg(R10, 0x00000000)
T2050 000:482.332 - 0.007ms returns 0x00
T2050 000:482.363 JLINK_WriteReg(R11, 0x00000000)
T2050 000:482.369 - 0.009ms returns 0x00
T2050 000:482.376 JLINK_WriteReg(R12, 0x00000000)
T2050 000:482.381 - 0.007ms returns 0x00
T2050 000:482.387 JLINK_WriteReg(R13 (SP), 0x20001000)
T2050 000:482.392 - 0.007ms returns 0x00
T2050 000:482.398 JLINK_WriteReg(R14, 0x20000001)
T2050 000:482.403 - 0.007ms returns 0x00
T2050 000:482.409 JLINK_WriteReg(R15 (PC), 0x20000020)
T2050 000:482.414 - 0.007ms returns 0x00
T2050 000:482.420 JLINK_WriteReg(XPSR, 0x01000000)
T2050 000:482.424 - 0.007ms returns 0x00
T2050 000:482.430 JLINK_WriteReg(MSP, 0x20001000)
T2050 000:482.435 - 0.006ms returns 0x00
T2050 000:482.441 JLINK_WriteReg(PSP, 0x20001000)
T2050 000:482.445 - 0.007ms returns 0x00
T2050 000:482.451 JLINK_WriteReg(CFBP, 0x00000000)
T2050 000:482.456 - 0.006ms returns 0x00
T2050 000:482.464   JLINK_SetBPEx(Addr = 0x20000000, Type = 0xFFFFFFF2)
T2050 000:482.473 - 0.011ms returns 0x00000002
T2050 000:482.528 JLINK_Go()
T2050 000:482.542    -- CPU_ReadMem(4 bytes @ 0xE0001000)
T2050 000:486.231 - 3.713ms
T2050 000:486.248 JLINK_IsHalted()
T2050 000:489.260    -- CPU_ReadMem(2 bytes @ 0x20000000)
T2050 000:489.763 - 3.518ms returns TRUE
T2050 000:489.775 JLINK_ReadReg(R15 (PC))
T2050 000:489.784 - 0.012ms returns 0x20000000
T2050 000:489.792 JLINK_ClrBPEx(BPHandle = 0x00000002)
T2050 000:489.799 - 0.009ms returns 0x00
T2050 000:489.806 JLINK_ReadReg(R0)
T2050 000:489.813 - 0.009ms returns 0x00000001
T2050 000:489.823 JLINK_WriteReg(R0, 0x08000000)
T2050 000:489.830 - 0.010ms returns 0x00
T2050 000:489.838 JLINK_WriteReg(R1, 0x00004000)
T2050 000:489.844 - 0.009ms returns 0x00
T2050 000:489.851 JLINK_WriteReg(R2, 0x000000FF)
T2050 000:489.857 - 0.009ms returns 0x00
T2050 000:489.865 JLINK_WriteReg(R3, 0x00000000)
T2050 000:489.871 - 0.009ms returns 0x00
T2050 000:489.878 JLINK_WriteReg(R4, 0x00000000)
T2050 000:489.884 - 0.009ms returns 0x00
T2050 000:489.892 JLINK_WriteReg(R5, 0x00000000)
T2050 000:489.898 - 0.009ms returns 0x00
T2050 000:489.905 JLINK_WriteReg(R6, 0x00000000)
T2050 000:489.912 - 0.009ms returns 0x00
T2050 000:489.919 JLINK_WriteReg(R7, 0x00000000)
T2050 000:489.925 - 0.009ms returns 0x00
T2050 000:489.933 JLINK_WriteReg(R8, 0x00000000)
T2050 000:489.939 - 0.009ms returns 0x00
T2050 000:489.947 JLINK_WriteReg(R9, 0x20000180)
T2050 000:489.953 - 0.009ms returns 0x00
T2050 000:489.960 JLINK_WriteReg(R10, 0x00000000)
T2050 000:489.966 - 0.009ms returns 0x00
T2050 000:489.974 JLINK_WriteReg(R11, 0x00000000)
T2050 000:489.980 - 0.009ms returns 0x00
T2050 000:489.987 JLINK_WriteReg(R12, 0x00000000)
T2050 000:489.994 - 0.009ms returns 0x00
T2050 000:490.001 JLINK_WriteReg(R13 (SP), 0x20001000)
T2050 000:490.007 - 0.009ms returns 0x00
T2050 000:490.015 JLINK_WriteReg(R14, 0x20000001)
T2050 000:490.021 - 0.009ms returns 0x00
T2050 000:490.029 JLINK_WriteReg(R15 (PC), 0x200000C0)
T2050 000:490.035 - 0.009ms returns 0x00
T2050 000:490.042 JLINK_WriteReg(XPSR, 0x01000000)
T2050 000:490.049 - 0.009ms returns 0x00
T2050 000:490.056 JLINK_WriteReg(MSP, 0x20001000)
T2050 000:490.062 - 0.009ms returns 0x00
T2050 000:490.070 JLINK_WriteReg(PSP, 0x20001000)
T2050 000:490.076 - 0.009ms returns 0x00
T2050 000:490.084 JLINK_WriteReg(CFBP, 0x00000000)
T2050 000:490.090 - 0.009ms returns 0x00
T2050 000:490.099   JLINK_SetBPEx(Addr = 0x20000000, Type = 0xFFFFFFF2)
T2050 000:490.109 - 0.013ms returns 0x00000003
T2050 000:490.117 JLINK_Go()
T2050 000:490.128    -- CPU_ReadMem(4 bytes @ 0xE0001000)
T2050 000:494.294 - 4.190ms
T2050 000:494.316 JLINK_IsHalted()
T2050 000:494.870 - 0.558ms returns FALSE
T2050 000:534.470 JLINK_IsHalted()
T2050 000:535.261 - 0.799ms returns FALSE
T2050 000:538.657 JLINK_IsHalted()
T2050 000:539.270 - 0.630ms returns FALSE
T2050 000:541.793 JLINK_IsHalted()
T2050 000:542.425 - 0.635ms returns FALSE
T2050 000:544.222 JLINK_IsHalted()
T2050 000:544.744 - 0.527ms returns FALSE
T2050 000:546.970 JLINK_IsHalted()
T2050 000:547.575 - 0.608ms returns FALSE
T2050 000:550.953 JLINK_IsHalted()
T2050 000:551.886 - 0.938ms returns FALSE
T2050 000:553.923 JLINK_IsHalted()
T2050 000:554.515 - 0.598ms returns FALSE
T2050 000:556.447 JLINK_IsHalted()
T2050 000:557.071 - 0.630ms returns FALSE
T2050 000:567.129 JLINK_IsHalted()
T2050 000:567.654 - 0.532ms returns FALSE
T2050 000:571.365 JLINK_IsHalted()
T2050 000:571.895 - 0.535ms returns FALSE
T2050 000:573.320 JLINK_IsHalted()
T2050 000:573.875 - 0.560ms returns FALSE
T2050 000:576.333 JLINK_IsHalted()
T2050 000:576.990 - 0.677ms returns FALSE
T2050 000:580.857 JLINK_IsHalted()
T2050 000:581.465 - 0.614ms returns FALSE
T2050 000:583.280 JLINK_IsHalted()
T2050 000:583.787 - 0.512ms returns FALSE
T2050 000:585.263 JLINK_IsHalted()
T2050 000:585.834 - 0.576ms returns FALSE
T2050 000:589.268 JLINK_IsHalted()
T2050 000:589.806 - 0.544ms returns FALSE
T2050 000:591.923 JLINK_IsHalted()
T2050 000:592.519 - 0.603ms returns FALSE
T2050 000:595.961 JLINK_IsHalted()
T2050 000:596.535 - 0.584ms returns FALSE
T2050 000:601.013 JLINK_IsHalted()
T2050 000:601.591 - 0.583ms returns FALSE
T2050 000:604.681 JLINK_IsHalted()
T2050 000:605.288 - 0.613ms returns FALSE
T2050 000:607.182 JLINK_IsHalted()
T2050 000:608.120 - 0.944ms returns FALSE
T2050 000:613.089 JLINK_IsHalted()
T2050 000:613.696 - 0.628ms returns FALSE
T2050 000:615.110 JLINK_IsHalted()
T2050 000:615.637 - 0.534ms returns FALSE
T2050 000:617.663 JLINK_IsHalted()
T2050 000:618.314 - 0.663ms returns FALSE
T2050 000:620.338 JLINK_IsHalted()
T2050 000:620.909 - 0.582ms returns FALSE
T2050 000:630.139 JLINK_IsHalted()
T2050 000:630.755 - 0.625ms returns FALSE
T2050 000:632.144 JLINK_IsHalted()
T2050 000:632.724 - 0.589ms returns FALSE
T2050 000:634.187 JLINK_IsHalted()
T2050 000:634.854 - 0.677ms returns FALSE
T2050 000:639.849 JLINK_IsHalted()
T2050 000:640.533 - 0.695ms returns FALSE
T2050 000:642.335 JLINK_IsHalted()
T2050 000:643.100 - 0.782ms returns FALSE
T2050 000:644.780 JLINK_IsHalted()
T2050 000:645.584 - 0.830ms returns FALSE
T2050 000:647.307 JLINK_IsHalted()
T2050 000:647.985 - 0.702ms returns FALSE
T2050 000:653.791 JLINK_IsHalted()
T2050 000:654.501 - 0.721ms returns FALSE
T2050 000:655.646 JLINK_IsHalted()
T2050 000:656.307 - 0.672ms returns FALSE
T2050 000:661.225 JLINK_IsHalted()
T2050 000:661.877 - 0.662ms returns FALSE
T2050 000:663.243 JLINK_IsHalted()
T2050 000:663.847 - 0.612ms returns FALSE
T2050 000:665.212 JLINK_IsHalted()
T2050 000:665.895 - 0.693ms returns FALSE
T2050 000:667.425 JLINK_IsHalted()
T2050 000:668.220 - 0.842ms returns FALSE
T2050 000:670.213 JLINK_IsHalted()
T2050 000:670.971 - 0.771ms returns FALSE
T2050 000:678.722 JLINK_IsHalted()
T2050 000:679.451 - 0.746ms returns FALSE
T2050 000:684.750 JLINK_IsHalted()
T2050 000:685.414 - 0.675ms returns FALSE
T2050 000:687.268 JLINK_IsHalted()
T2050 000:688.111 - 0.864ms returns FALSE
T2050 000:690.258 JLINK_IsHalted()
T2050 000:690.972 - 0.726ms returns FALSE
T2050 000:692.250 JLINK_IsHalted()
T2050 000:692.972 - 0.740ms returns FALSE
T2050 000:694.473 JLINK_IsHalted()
T2050 000:695.341 - 0.918ms returns FALSE
T2050 000:696.774 JLINK_IsHalted()
T2050 000:697.473 - 0.710ms returns FALSE
T2050 000:698.761 JLINK_IsHalted()
T2050 000:699.362 - 0.630ms returns FALSE
T2050 000:703.501 JLINK_IsHalted()
T2050 000:704.165 - 0.673ms returns FALSE
T2050 000:705.486 JLINK_IsHalted()
T2050 000:706.130 - 0.655ms returns FALSE
T2050 000:708.004 JLINK_IsHalted()
T2050 000:708.774 - 0.792ms returns FALSE
T2050 000:714.551 JLINK_IsHalted()
T2050 000:715.304 - 0.768ms returns FALSE
T2050 000:716.542 JLINK_IsHalted()
T2050 000:717.182 - 0.649ms returns FALSE
T2050 000:718.714 JLINK_IsHalted()
T2050 000:719.358 - 0.655ms returns FALSE
T2050 000:720.668 JLINK_IsHalted()
T2050 000:721.416 - 0.762ms returns FALSE
T2050 000:730.874 JLINK_IsHalted()
T2050 000:731.579 - 0.735ms returns FALSE
T2050 000:732.926 JLINK_IsHalted()
T2050 000:733.538 - 0.622ms returns FALSE
T2050 000:734.863 JLINK_IsHalted()
T2050 000:735.488 - 0.651ms returns FALSE
T2050 000:736.679 JLINK_IsHalted()
T2050 000:737.308 - 0.648ms returns FALSE
T2050 000:740.976 JLINK_IsHalted()
T2050 000:741.616 - 0.658ms returns FALSE
T2050 000:743.567 JLINK_IsHalted()
T2050 000:744.293 - 0.754ms returns FALSE
T2050 000:745.934 JLINK_IsHalted()
T2050 000:746.518 - 0.606ms returns FALSE
T2050 000:750.008 JLINK_IsHalted()
T2050 000:750.634 - 0.654ms returns FALSE
T2050 000:752.013 JLINK_IsHalted()
T2050 000:752.664 - 0.665ms returns FALSE
T2050 000:754.021 JLINK_IsHalted()
T2050 000:754.636 - 0.630ms returns FALSE
T2050 000:758.908 JLINK_IsHalted()
T2050 000:759.526 - 0.643ms returns FALSE
T2050 000:761.182 JLINK_IsHalted()
T2050 000:761.876 - 0.711ms returns FALSE
T2050 000:763.891 JLINK_IsHalted()
T2050 000:764.478 - 0.594ms returns FALSE
T2050 000:765.830 JLINK_IsHalted()
T2050 000:766.377 - 0.553ms returns FALSE
T2050 000:767.914 JLINK_IsHalted()
T2050 000:768.510 - 0.604ms returns FALSE
T2050 000:773.993 JLINK_IsHalted()
T2050 000:774.580 - 0.606ms returns FALSE
T2050 000:776.867 JLINK_IsHalted()
T2050 000:777.703 - 0.855ms returns FALSE
T2050 000:779.404 JLINK_IsHalted()
T2050 000:779.990 - 0.601ms returns FALSE
T2050 000:783.961 JLINK_IsHalted()
T2050 000:784.498 - 0.552ms returns FALSE
T2050 000:785.931 JLINK_IsHalted()
T2050 000:786.529 - 0.606ms returns FALSE
T2050 000:787.952 JLINK_IsHalted()
T2050 000:788.519 - 0.574ms returns FALSE
T2050 000:790.008 JLINK_IsHalted()
T2050 000:790.591 - 0.591ms returns FALSE
T2050 000:796.875 JLINK_IsHalted()
T2050 000:797.478 - 0.614ms returns FALSE
T2050 000:798.846 JLINK_IsHalted()
T2050 000:799.484 - 0.662ms returns FALSE
T2050 000:805.856 JLINK_IsHalted()
T2050 000:806.466 - 0.616ms returns FALSE
T2050 000:807.844 JLINK_IsHalted()
T2050 000:808.457 - 0.625ms returns FALSE
T2050 000:812.238 JLINK_IsHalted()
T2050 000:812.807 - 0.581ms returns FALSE
T2050 000:814.344 JLINK_IsHalted()
T2050 000:815.081 - 0.751ms returns FALSE
T2050 000:816.502 JLINK_IsHalted()
T2050 000:817.142 - 0.652ms returns FALSE
T2050 000:820.252 JLINK_IsHalted()
T2050 000:821.004 - 0.767ms returns FALSE
T2050 000:823.301 JLINK_IsHalted()
T2050 000:823.848 - 0.557ms returns FALSE
T2050 000:825.903 JLINK_IsHalted()
T2050 000:829.423    -- CPU_ReadMem(2 bytes @ 0x20000000)
T2050 000:829.934 - 4.036ms returns TRUE
T2050 000:829.944 JLINK_ReadReg(R15 (PC))
T2050 000:829.953 - 0.011ms returns 0x20000000
T2050 000:829.960 JLINK_ClrBPEx(BPHandle = 0x00000003)
T2050 000:829.966 - 0.008ms returns 0x00
T2050 000:829.972 JLINK_ReadReg(R0)
T2050 000:829.977 - 0.007ms returns 0x00000000
T2050 000:830.339 JLINK_WriteReg(R0, 0x00000001)
T2050 000:830.352 - 0.016ms returns 0x00
T2050 000:830.358 JLINK_WriteReg(R1, 0x00004000)
T2050 000:830.363 - 0.007ms returns 0x00
T2050 000:830.369 JLINK_WriteReg(R2, 0x000000FF)
T2050 000:830.374 - 0.007ms returns 0x00
T2050 000:830.380 JLINK_WriteReg(R3, 0x00000000)
T2050 000:830.385 - 0.007ms returns 0x00
T2050 000:830.391 JLINK_WriteReg(R4, 0x00000000)
T2050 000:830.395 - 0.006ms returns 0x00
T2050 000:830.401 JLINK_WriteReg(R5, 0x00000000)
T2050 000:830.406 - 0.007ms returns 0x00
T2050 000:830.412 JLINK_WriteReg(R6, 0x00000000)
T2050 000:830.417 - 0.007ms returns 0x00
T2050 000:830.423 JLINK_WriteReg(R7, 0x00000000)
T2050 000:830.428 - 0.007ms returns 0x00
T2050 000:830.433 JLINK_WriteReg(R8, 0x00000000)
T2050 000:830.438 - 0.007ms returns 0x00
T2050 000:830.444 JLINK_WriteReg(R9, 0x20000180)
T2050 000:830.449 - 0.007ms returns 0x00
T2050 000:830.454 JLINK_WriteReg(R10, 0x00000000)
T2050 000:830.459 - 0.007ms returns 0x00
T2050 000:830.465 JLINK_WriteReg(R11, 0x00000000)
T2050 000:830.470 - 0.007ms returns 0x00
T2050 000:830.475 JLINK_WriteReg(R12, 0x00000000)
T2050 000:830.480 - 0.007ms returns 0x00
T2050 000:830.486 JLINK_WriteReg(R13 (SP), 0x20001000)
T2050 000:830.491 - 0.007ms returns 0x00
T2050 000:830.497 JLINK_WriteReg(R14, 0x20000001)
T2050 000:830.502 - 0.007ms returns 0x00
T2050 000:830.508 JLINK_WriteReg(R15 (PC), 0x20000086)
T2050 000:830.513 - 0.007ms returns 0x00
T2050 000:830.519 JLINK_WriteReg(XPSR, 0x01000000)
T2050 000:830.523 - 0.007ms returns 0x00
T2050 000:830.529 JLINK_WriteReg(MSP, 0x20001000)
T2050 000:830.534 - 0.006ms returns 0x00
T2050 000:830.540 JLINK_WriteReg(PSP, 0x20001000)
T2050 000:830.545 - 0.007ms returns 0x00
T2050 000:830.550 JLINK_WriteReg(CFBP, 0x00000000)
T2050 000:830.555 - 0.007ms returns 0x00
T2050 000:830.562   JLINK_SetBPEx(Addr = 0x20000000, Type = 0xFFFFFFF2)
T2050 000:830.570 - 0.010ms returns 0x00000004
T2050 000:830.576 JLINK_Go()
T2050 000:830.587    -- CPU_ReadMem(4 bytes @ 0xE0001000)
T2050 000:834.604 - 4.039ms
T2050 000:834.622 JLINK_IsHalted()
T2050 000:838.561    -- CPU_ReadMem(2 bytes @ 0x20000000)
T2050 000:839.097 - 4.480ms returns TRUE
T2050 000:839.109 JLINK_ReadReg(R15 (PC))
T2050 000:839.118 - 0.011ms returns 0x20000000
T2050 000:839.125 JLINK_ClrBPEx(BPHandle = 0x00000004)
T2050 000:839.130 - 0.007ms returns 0x00
T2050 000:839.136 JLINK_ReadReg(R0)
T2050 000:839.148 - 0.014ms returns 0x00000000
T2050 000:895.246 JLINK_WriteMem(0x20000000, 0x0184 Bytes, ...)
T2050 000:895.261   Data:  00 BE 0A E0 0D 78 2D 06 68 40 08 24 40 00 00 D3 ...
T2050 000:895.282    -- CPU_WriteMem(388 bytes @ 0x20000000)
T2050 000:897.895 - 2.661ms returns 0x184
T2050 000:897.941 JLINK_WriteReg(R0, 0x08000000)
T2050 000:897.950 - 0.011ms returns 0x00
T2050 000:897.956 JLINK_WriteReg(R1, 0x017D7840)
T2050 000:897.961 - 0.007ms returns 0x00
T2050 000:897.967 JLINK_WriteReg(R2, 0x00000002)
T2050 000:897.971 - 0.007ms returns 0x00
T2050 000:897.977 JLINK_WriteReg(R3, 0x00000000)
T2050 000:897.982 - 0.007ms returns 0x00
T2050 000:897.988 JLINK_WriteReg(R4, 0x00000000)
T2050 000:897.992 - 0.007ms returns 0x00
T2050 000:897.999 JLINK_WriteReg(R5, 0x00000000)
T2050 000:898.004 - 0.007ms returns 0x00
T2050 000:898.009 JLINK_WriteReg(R6, 0x00000000)
T2050 000:898.014 - 0.006ms returns 0x00
T2050 000:898.020 JLINK_WriteReg(R7, 0x00000000)
T2050 000:898.025 - 0.007ms returns 0x00
T2050 000:898.030 JLINK_WriteReg(R8, 0x00000000)
T2050 000:898.035 - 0.007ms returns 0x00
T2050 000:898.041 JLINK_WriteReg(R9, 0x20000180)
T2050 000:898.046 - 0.007ms returns 0x00
T2050 000:898.052 JLINK_WriteReg(R10, 0x00000000)
T2050 000:898.058 - 0.007ms returns 0x00
T2050 000:898.064 JLINK_WriteReg(R11, 0x00000000)
T2050 000:898.068 - 0.007ms returns 0x00
T2050 000:898.074 JLINK_WriteReg(R12, 0x00000000)
T2050 000:898.079 - 0.006ms returns 0x00
T2050 000:898.085 JLINK_WriteReg(R13 (SP), 0x20001000)
T2050 000:898.090 - 0.008ms returns 0x00
T2050 000:898.096 JLINK_WriteReg(R14, 0x20000001)
T2050 000:898.105 - 0.011ms returns 0x00
T2050 000:898.111 JLINK_WriteReg(R15 (PC), 0x20000054)
T2050 000:898.116 - 0.007ms returns 0x00
T2050 000:898.122 JLINK_WriteReg(XPSR, 0x01000000)
T2050 000:898.127 - 0.007ms returns 0x00
T2050 000:898.133 JLINK_WriteReg(MSP, 0x20001000)
T2050 000:898.138 - 0.007ms returns 0x00
T2050 000:898.143 JLINK_WriteReg(PSP, 0x20001000)
T2050 000:898.148 - 0.007ms returns 0x00
T2050 000:898.154 JLINK_WriteReg(CFBP, 0x00000000)
T2050 000:898.159 - 0.007ms returns 0x00
T2050 000:898.166   JLINK_SetBPEx(Addr = 0x20000000, Type = 0xFFFFFFF2)
T2050 000:898.177    -- CPU_ReadMem(2 bytes @ 0x20000000)
T2050 000:898.702 - 0.540ms returns 0x00000005
T2050 000:898.711 JLINK_Go()
T2050 000:898.718    -- CPU_WriteMem(2 bytes @ 0x20000000)
T2050 000:899.314    -- CPU_ReadMem(4 bytes @ 0xE0001000)
T2050 000:903.121 - 4.427ms
T2050 000:903.146 JLINK_IsHalted()
T2050 000:906.206    -- CPU_ReadMem(2 bytes @ 0x20000000)
T2050 000:906.701 - 3.558ms returns TRUE
T2050 000:906.711 JLINK_ReadReg(R15 (PC))
T2050 000:906.720 - 0.011ms returns 0x20000000
T2050 000:906.726 JLINK_ClrBPEx(BPHandle = 0x00000005)
T2050 000:906.731 - 0.007ms returns 0x00
T2050 000:906.738 JLINK_ReadReg(R0)
T2050 000:906.742 - 0.007ms returns 0x00000000
T2050 000:907.033 JLINK_WriteMem(0x20000184, 0x027C Bytes, ...)
T2050 000:907.044   Data:  50 0A 00 20 AD 01 00 08 F3 22 00 08 C5 1B 00 08 ...
T2050 000:907.060    -- CPU_WriteMem(636 bytes @ 0x20000184)
T2050 000:910.789 - 3.770ms returns 0x27C
T2050 000:910.812 JLINK_WriteMem(0x20000400, 0x0184 Bytes, ...)
T2050 000:910.818   Data:  11 F8 01 2B 00 F8 01 2B 00 2A F9 D1 18 46 70 47 ...
T2050 000:910.836    -- CPU_WriteMem(388 bytes @ 0x20000400)
T2050 000:913.371 - 2.570ms returns 0x184
T2050 000:913.394 JLINK_WriteReg(R0, 0x08000000)
T2050 000:913.403 - 0.012ms returns 0x00
T2050 000:913.409 JLINK_WriteReg(R1, 0x00000400)
T2050 000:913.414 - 0.007ms returns 0x00
T2050 000:913.420 JLINK_WriteReg(R2, 0x20000184)
T2050 000:913.425 - 0.007ms returns 0x00
T2050 000:913.431 JLINK_WriteReg(R3, 0x00000000)
T2050 000:913.436 - 0.007ms returns 0x00
T2050 000:913.442 JLINK_WriteReg(R4, 0x00000000)
T2050 000:913.446 - 0.007ms returns 0x00
T2050 000:913.452 JLINK_WriteReg(R5, 0x00000000)
T2050 000:913.457 - 0.007ms returns 0x00
T2050 000:913.463 JLINK_WriteReg(R6, 0x00000000)
T2050 000:913.467 - 0.007ms returns 0x00
T2050 000:913.523 JLINK_WriteReg(R7, 0x00000000)
T2050 000:913.531 - 0.010ms returns 0x00
T2050 000:913.537 JLINK_WriteReg(R8, 0x00000000)
T2050 000:913.542 - 0.007ms returns 0x00
T2050 000:913.548 JLINK_WriteReg(R9, 0x20000180)
T2050 000:913.553 - 0.007ms returns 0x00
T2050 000:913.558 JLINK_WriteReg(R10, 0x00000000)
T2050 000:913.564 - 0.007ms returns 0x00
T2050 000:913.570 JLINK_WriteReg(R11, 0x00000000)
T2050 000:913.575 - 0.007ms returns 0x00
T2050 000:913.581 JLINK_WriteReg(R12, 0x00000000)
T2050 000:913.586 - 0.007ms returns 0x00
T2050 000:913.591 JLINK_WriteReg(R13 (SP), 0x20001000)
T2050 000:913.597 - 0.008ms returns 0x00
T2050 000:913.603 JLINK_WriteReg(R14, 0x20000001)
T2050 000:913.608 - 0.007ms returns 0x00
T2050 000:913.614 JLINK_WriteReg(R15 (PC), 0x2000010C)
T2050 000:913.619 - 0.007ms returns 0x00
T2050 000:913.624 JLINK_WriteReg(XPSR, 0x01000000)
T2050 000:913.630 - 0.007ms returns 0x00
T2050 000:913.635 JLINK_WriteReg(MSP, 0x20001000)
T2050 000:913.640 - 0.007ms returns 0x00
T2050 000:913.646 JLINK_WriteReg(PSP, 0x20001000)
T2050 000:913.650 - 0.007ms returns 0x00
T2050 000:913.656 JLINK_WriteReg(CFBP, 0x00000000)
T2050 000:913.661 - 0.006ms returns 0x00
T2050 000:913.667   JLINK_SetBPEx(Addr = 0x20000000, Type = 0xFFFFFFF2)
T2050 000:913.675 - 0.011ms returns 0x00000006
T2050 000:913.682 JLINK_Go()
T2050 000:913.693    -- CPU_ReadMem(4 bytes @ 0xE0001000)
T2050 000:917.449 - 3.784ms
T2050 000:917.474 JLINK_IsHalted()
T2050 000:918.081 - 0.617ms returns FALSE
T2050 000:930.290 JLINK_IsHalted()
T2050 000:933.401    -- CPU_ReadMem(2 bytes @ 0x20000000)
T2050 000:933.935 - 3.650ms returns TRUE
T2050 000:933.947 JLINK_ReadReg(R15 (PC))
T2050 000:933.956 - 0.011ms returns 0x20000000
T2050 000:933.962 JLINK_ClrBPEx(BPHandle = 0x00000006)
T2050 000:933.968 - 0.007ms returns 0x00
T2050 000:933.974 JLINK_ReadReg(R0)
T2050 000:933.979 - 0.007ms returns 0x00000000
T2050 000:934.541 JLINK_WriteMem(0x20000184, 0x027C Bytes, ...)
T2050 000:934.553   Data:  03 07 06 F4 80 46 00 96 36 4E 07 EB 06 0C DC F8 ...
T2050 000:934.568    -- CPU_WriteMem(636 bytes @ 0x20000184)
T2050 000:938.312 - 3.783ms returns 0x27C
T2050 000:938.331 JLINK_WriteMem(0x20000400, 0x0184 Bytes, ...)
T2050 000:938.337   Data:  41 01 40 1E B0 FB F1 F0 40 1C C0 F3 0B 00 B7 E7 ...
T2050 000:938.351    -- CPU_WriteMem(388 bytes @ 0x20000400)
T2050 000:940.992 - 2.672ms returns 0x184
T2050 000:941.015 JLINK_WriteReg(R0, 0x08000400)
T2050 000:941.023 - 0.010ms returns 0x00
T2050 000:941.029 JLINK_WriteReg(R1, 0x00000400)
T2050 000:941.034 - 0.007ms returns 0x00
T2050 000:941.040 JLINK_WriteReg(R2, 0x20000184)
T2050 000:941.045 - 0.006ms returns 0x00
T2050 000:941.050 JLINK_WriteReg(R3, 0x00000000)
T2050 000:941.055 - 0.007ms returns 0x00
T2050 000:941.061 JLINK_WriteReg(R4, 0x00000000)
T2050 000:941.065 - 0.006ms returns 0x00
T2050 000:941.071 JLINK_WriteReg(R5, 0x00000000)
T2050 000:941.076 - 0.006ms returns 0x00
T2050 000:941.081 JLINK_WriteReg(R6, 0x00000000)
T2050 000:941.086 - 0.006ms returns 0x00
T2050 000:941.091 JLINK_WriteReg(R7, 0x00000000)
T2050 000:941.097 - 0.007ms returns 0x00
T2050 000:941.102 JLINK_WriteReg(R8, 0x00000000)
T2050 000:941.107 - 0.007ms returns 0x00
T2050 000:941.113 JLINK_WriteReg(R9, 0x20000180)
T2050 000:941.117 - 0.006ms returns 0x00
T2050 000:941.123 JLINK_WriteReg(R10, 0x00000000)
T2050 000:941.128 - 0.007ms returns 0x00
T2050 000:941.133 JLINK_WriteReg(R11, 0x00000000)
T2050 000:941.221 - 0.090ms returns 0x00
T2050 000:941.229 JLINK_WriteReg(R12, 0x00000000)
T2050 000:941.234 - 0.007ms returns 0x00
T2050 000:941.240 JLINK_WriteReg(R13 (SP), 0x20001000)
T2050 000:941.246 - 0.008ms returns 0x00
T2050 000:941.251 JLINK_WriteReg(R14, 0x20000001)
T2050 000:941.256 - 0.007ms returns 0x00
T2050 000:941.262 JLINK_WriteReg(R15 (PC), 0x2000010C)
T2050 000:941.278 - 0.018ms returns 0x00
T2050 000:941.284 JLINK_WriteReg(XPSR, 0x01000000)
T2050 000:941.289 - 0.007ms returns 0x00
T2050 000:941.295 JLINK_WriteReg(MSP, 0x20001000)
T2050 000:941.299 - 0.011ms returns 0x00
T2050 000:941.312 JLINK_WriteReg(PSP, 0x20001000)
T2050 000:941.317 - 0.007ms returns 0x00
T2050 000:941.323 JLINK_WriteReg(CFBP, 0x00000000)
T2050 000:941.328 - 0.007ms returns 0x00
T2050 000:941.334   JLINK_SetBPEx(Addr = 0x20000000, Type = 0xFFFFFFF2)
T2050 000:941.342 - 0.011ms returns 0x00000007
T2050 000:941.348 JLINK_Go()
T2050 000:941.360    -- CPU_ReadMem(4 bytes @ 0xE0001000)
T2050 000:945.031 - 3.698ms
T2050 000:945.065 JLINK_IsHalted()
T2050 000:945.953 - 0.922ms returns FALSE
T2050 000:950.875 JLINK_IsHalted()
T2050 000:953.984    -- CPU_ReadMem(2 bytes @ 0x20000000)
T2050 000:954.517 - 3.649ms returns TRUE
T2050 000:954.530 JLINK_ReadReg(R15 (PC))
T2050 000:954.538 - 0.011ms returns 0x20000000
T2050 000:954.544 JLINK_ClrBPEx(BPHandle = 0x00000007)
T2050 000:954.550 - 0.007ms returns 0x00
T2050 000:954.556 JLINK_ReadReg(R0)
T2050 000:954.561 - 0.007ms returns 0x00000000
T2050 000:954.988 JLINK_WriteMem(0x20000184, 0x027C Bytes, ...)
T2050 000:955.001   Data:  02 00 10 00 00 00 FF FF 2D E9 FF 4F 83 B0 9A 46 ...
T2050 000:955.016    -- CPU_WriteMem(636 bytes @ 0x20000184)
T2050 000:958.831 - 3.855ms returns 0x27C
T2050 000:958.850 JLINK_WriteMem(0x20000400, 0x0184 Bytes, ...)
T2050 000:958.856   Data:  A4 F8 2A 90 60 8D 20 85 2C 48 E0 62 CD E9 00 75 ...
T2050 000:958.871    -- CPU_WriteMem(388 bytes @ 0x20000400)
T2050 000:961.435 - 2.599ms returns 0x184
T2050 000:961.461 JLINK_WriteReg(R0, 0x08000800)
T2050 000:961.471 - 0.013ms returns 0x00
T2050 000:961.477 JLINK_WriteReg(R1, 0x00000400)
T2050 000:961.482 - 0.007ms returns 0x00
T2050 000:961.488 JLINK_WriteReg(R2, 0x20000184)
T2050 000:961.492 - 0.006ms returns 0x00
T2050 000:961.498 JLINK_WriteReg(R3, 0x00000000)
T2050 000:961.503 - 0.007ms returns 0x00
T2050 000:961.509 JLINK_WriteReg(R4, 0x00000000)
T2050 000:961.514 - 0.006ms returns 0x00
T2050 000:961.519 JLINK_WriteReg(R5, 0x00000000)
T2050 000:961.524 - 0.006ms returns 0x00
T2050 000:961.530 JLINK_WriteReg(R6, 0x00000000)
T2050 000:961.534 - 0.007ms returns 0x00
T2050 000:961.540 JLINK_WriteReg(R7, 0x00000000)
T2050 000:961.545 - 0.006ms returns 0x00
T2050 000:961.550 JLINK_WriteReg(R8, 0x00000000)
T2050 000:961.555 - 0.007ms returns 0x00
T2050 000:961.561 JLINK_WriteReg(R9, 0x20000180)
T2050 000:961.565 - 0.006ms returns 0x00
T2050 000:961.571 JLINK_WriteReg(R10, 0x00000000)
T2050 000:961.576 - 0.007ms returns 0x00
T2050 000:961.581 JLINK_WriteReg(R11, 0x00000000)
T2050 000:961.586 - 0.007ms returns 0x00
T2050 000:961.592 JLINK_WriteReg(R12, 0x00000000)
T2050 000:961.597 - 0.006ms returns 0x00
T2050 000:961.602 JLINK_WriteReg(R13 (SP), 0x20001000)
T2050 000:961.608 - 0.007ms returns 0x00
T2050 000:961.613 JLINK_WriteReg(R14, 0x20000001)
T2050 000:961.618 - 0.006ms returns 0x00
T2050 000:961.624 JLINK_WriteReg(R15 (PC), 0x2000010C)
T2050 000:961.628 - 0.007ms returns 0x00
T2050 000:961.634 JLINK_WriteReg(XPSR, 0x01000000)
T2050 000:961.639 - 0.007ms returns 0x00
T2050 000:961.645 JLINK_WriteReg(MSP, 0x20001000)
T2050 000:961.649 - 0.006ms returns 0x00
T2050 000:961.655 JLINK_WriteReg(PSP, 0x20001000)
T2050 000:961.660 - 0.006ms returns 0x00
T2050 000:961.665 JLINK_WriteReg(CFBP, 0x00000000)
T2050 000:961.670 - 0.007ms returns 0x00
T2050 000:961.677   JLINK_SetBPEx(Addr = 0x20000000, Type = 0xFFFFFFF2)
T2050 000:961.684 - 0.010ms returns 0x00000008
T2050 000:961.690 JLINK_Go()
T2050 000:961.703    -- CPU_ReadMem(4 bytes @ 0xE0001000)
T2050 000:965.213 - 3.535ms
T2050 000:965.233 JLINK_IsHalted()
T2050 000:966.161 - 0.943ms returns FALSE
T2050 000:977.605 JLINK_IsHalted()
T2050 000:980.906    -- CPU_ReadMem(2 bytes @ 0x20000000)
T2050 000:981.521 - 3.933ms returns TRUE
T2050 000:981.556 JLINK_ReadReg(R15 (PC))
T2050 000:981.577 - 0.028ms returns 0x20000000
T2050 000:981.596 JLINK_ClrBPEx(BPHandle = 0x00000008)
T2050 000:981.601 - 0.007ms returns 0x00
T2050 000:981.607 JLINK_ReadReg(R0)
T2050 000:981.612 - 0.007ms returns 0x00000000
T2050 000:982.048 JLINK_WriteMem(0x20000184, 0x027C Bytes, ...)
T2050 000:982.065   Data:  06 A9 00 F0 01 00 00 90 01 A8 00 F0 27 F9 00 F0 ...
T2050 000:982.082    -- CPU_WriteMem(636 bytes @ 0x20000184)
T2050 000:985.880 - 3.851ms returns 0x27C
T2050 000:985.907 JLINK_WriteMem(0x20000400, 0x0184 Bytes, ...)
T2050 000:985.914   Data:  4F F4 E0 53 03 EA D2 02 02 61 04 48 00 68 00 F0 ...
T2050 000:985.928    -- CPU_WriteMem(388 bytes @ 0x20000400)
T2050 000:988.490 - 2.597ms returns 0x184
T2050 000:988.516 JLINK_WriteReg(R0, 0x08000C00)
T2050 000:988.526 - 0.013ms returns 0x00
T2050 000:988.533 JLINK_WriteReg(R1, 0x00000400)
T2050 000:988.539 - 0.008ms returns 0x00
T2050 000:988.545 JLINK_WriteReg(R2, 0x20000184)
T2050 000:988.550 - 0.007ms returns 0x00
T2050 000:988.557 JLINK_WriteReg(R3, 0x00000000)
T2050 000:988.562 - 0.007ms returns 0x00
T2050 000:988.568 JLINK_WriteReg(R4, 0x00000000)
T2050 000:988.574 - 0.007ms returns 0x00
T2050 000:988.580 JLINK_WriteReg(R5, 0x00000000)
T2050 000:988.585 - 0.007ms returns 0x00
T2050 000:988.592 JLINK_WriteReg(R6, 0x00000000)
T2050 000:988.597 - 0.007ms returns 0x00
T2050 000:988.603 JLINK_WriteReg(R7, 0x00000000)
T2050 000:988.608 - 0.007ms returns 0x00
T2050 000:988.615 JLINK_WriteReg(R8, 0x00000000)
T2050 000:988.620 - 0.007ms returns 0x00
T2050 000:988.627 JLINK_WriteReg(R9, 0x20000180)
T2050 000:988.632 - 0.007ms returns 0x00
T2050 000:988.638 JLINK_WriteReg(R10, 0x00000000)
T2050 000:988.643 - 0.007ms returns 0x00
T2050 000:988.650 JLINK_WriteReg(R11, 0x00000000)
T2050 000:988.655 - 0.007ms returns 0x00
T2050 000:988.662 JLINK_WriteReg(R12, 0x00000000)
T2050 000:988.667 - 0.007ms returns 0x00
T2050 000:988.673 JLINK_WriteReg(R13 (SP), 0x20001000)
T2050 000:988.679 - 0.008ms returns 0x00
T2050 000:988.685 JLINK_WriteReg(R14, 0x20000001)
T2050 000:988.691 - 0.007ms returns 0x00
T2050 000:988.697 JLINK_WriteReg(R15 (PC), 0x2000010C)
T2050 000:988.702 - 0.007ms returns 0x00
T2050 000:988.709 JLINK_WriteReg(XPSR, 0x01000000)
T2050 000:988.714 - 0.007ms returns 0x00
T2050 000:988.720 JLINK_WriteReg(MSP, 0x20001000)
T2050 000:988.726 - 0.007ms returns 0x00
T2050 000:988.732 JLINK_WriteReg(PSP, 0x20001000)
T2050 000:988.737 - 0.007ms returns 0x00
T2050 000:988.744 JLINK_WriteReg(CFBP, 0x00000000)
T2050 000:988.749 - 0.007ms returns 0x00
T2050 000:988.756   JLINK_SetBPEx(Addr = 0x20000000, Type = 0xFFFFFFF2)
T2050 000:988.765 - 0.012ms returns 0x00000009
T2050 000:988.772 JLINK_Go()
T2050 000:988.783    -- CPU_ReadMem(4 bytes @ 0xE0001000)
T2050 000:992.645 - 3.883ms
T2050 000:992.663 JLINK_IsHalted()
T2050 000:993.328 - 0.681ms returns FALSE
T2050 001:005.597 JLINK_IsHalted()
T2050 001:008.788    -- CPU_ReadMem(2 bytes @ 0x20000000)
T2050 001:009.311 - 3.721ms returns TRUE
T2050 001:009.327 JLINK_ReadReg(R15 (PC))
T2050 001:009.336 - 0.012ms returns 0x20000000
T2050 001:009.344 JLINK_ClrBPEx(BPHandle = 0x00000009)
T2050 001:009.350 - 0.009ms returns 0x00
T2050 001:009.357 JLINK_ReadReg(R0)
T2050 001:009.364 - 0.008ms returns 0x00000000
T2050 001:009.894 JLINK_WriteMem(0x20000184, 0x027C Bytes, ...)
T2050 001:009.908   Data:  11 F0 0C 0F 08 D0 00 68 C0 F3 81 00 02 28 0B D1 ...
T2050 001:009.925    -- CPU_WriteMem(636 bytes @ 0x20000184)
T2050 001:014.050 - 4.171ms returns 0x27C
T2050 001:014.075 JLINK_WriteMem(0x20000400, 0x0184 Bytes, ...)
T2050 001:014.083   Data:  B1 EB 02 4F 06 D1 94 F8 2C 10 00 F0 70 60 B0 EB ...
T2050 001:014.102    -- CPU_WriteMem(388 bytes @ 0x20000400)
T2050 001:016.729 - 2.675ms returns 0x184
T2050 001:016.768 JLINK_WriteReg(R0, 0x08001000)
T2050 001:016.782 - 0.019ms returns 0x00
T2050 001:016.793 JLINK_WriteReg(R1, 0x00000400)
T2050 001:016.803 - 0.013ms returns 0x00
T2050 001:016.813 JLINK_WriteReg(R2, 0x20000184)
T2050 001:016.822 - 0.012ms returns 0x00
T2050 001:016.832 JLINK_WriteReg(R3, 0x00000000)
T2050 001:016.840 - 0.012ms returns 0x00
T2050 001:016.851 JLINK_WriteReg(R4, 0x00000000)
T2050 001:016.859 - 0.012ms returns 0x00
T2050 001:016.869 JLINK_WriteReg(R5, 0x00000000)
T2050 001:016.878 - 0.012ms returns 0x00
T2050 001:016.888 JLINK_WriteReg(R6, 0x00000000)
T2050 001:016.909 - 0.025ms returns 0x00
T2050 001:016.920 JLINK_WriteReg(R7, 0x00000000)
T2050 001:016.928 - 0.012ms returns 0x00
T2050 001:016.938 JLINK_WriteReg(R8, 0x00000000)
T2050 001:016.947 - 0.012ms returns 0x00
T2050 001:016.957 JLINK_WriteReg(R9, 0x20000180)
T2050 001:016.965 - 0.012ms returns 0x00
T2050 001:016.976 JLINK_WriteReg(R10, 0x00000000)
T2050 001:016.984 - 0.012ms returns 0x00
T2050 001:016.995 JLINK_WriteReg(R11, 0x00000000)
T2050 001:017.003 - 0.012ms returns 0x00
T2050 001:017.014 JLINK_WriteReg(R12, 0x00000000)
T2050 001:017.023 - 0.012ms returns 0x00
T2050 001:017.034 JLINK_WriteReg(R13 (SP), 0x20001000)
T2050 001:017.043 - 0.013ms returns 0x00
T2050 001:017.053 JLINK_WriteReg(R14, 0x20000001)
T2050 001:017.062 - 0.012ms returns 0x00
T2050 001:017.072 JLINK_WriteReg(R15 (PC), 0x2000010C)
T2050 001:017.081 - 0.013ms returns 0x00
T2050 001:017.092 JLINK_WriteReg(XPSR, 0x01000000)
T2050 001:017.100 - 0.012ms returns 0x00
T2050 001:017.111 JLINK_WriteReg(MSP, 0x20001000)
T2050 001:017.119 - 0.012ms returns 0x00
T2050 001:017.130 JLINK_WriteReg(PSP, 0x20001000)
T2050 001:017.138 - 0.012ms returns 0x00
T2050 001:017.149 JLINK_WriteReg(CFBP, 0x00000000)
T2050 001:017.157 - 0.012ms returns 0x00
T2050 001:017.169   JLINK_SetBPEx(Addr = 0x20000000, Type = 0xFFFFFFF2)
T2050 001:017.183 - 0.019ms returns 0x0000000A
T2050 001:017.194 JLINK_Go()
T2050 001:017.214    -- CPU_ReadMem(4 bytes @ 0xE0001000)
T2050 001:020.940 - 3.772ms
T2050 001:020.981 JLINK_IsHalted()
T2050 001:021.567 - 0.601ms returns FALSE
T2050 001:038.405 JLINK_IsHalted()
T2050 001:041.445    -- CPU_ReadMem(2 bytes @ 0x20000000)
T2050 001:042.124 - 3.722ms returns TRUE
T2050 001:042.134 JLINK_ReadReg(R15 (PC))
T2050 001:042.142 - 0.010ms returns 0x20000000
T2050 001:042.149 JLINK_ClrBPEx(BPHandle = 0x0000000A)
T2050 001:042.155 - 0.008ms returns 0x00
T2050 001:042.162 JLINK_ReadReg(R0)
T2050 001:042.167 - 0.007ms returns 0x00000000
T2050 001:042.899 JLINK_WriteMem(0x20000184, 0x027C Bytes, ...)
T2050 001:042.917   Data:  0E D0 B2 F1 80 4F 0B D0 0D 4B 9A 42 08 D0 0D 4B ...
T2050 001:042.938    -- CPU_WriteMem(636 bytes @ 0x20000184)
T2050 001:047.191 - 4.306ms returns 0x27C
T2050 001:047.215 JLINK_WriteMem(0x20000400, 0x0184 Bytes, ...)
T2050 001:047.222   Data:  0C 2A 50 D0 01 26 00 20 85 F8 3C 00 30 46 BD E8 ...
T2050 001:047.239    -- CPU_WriteMem(388 bytes @ 0x20000400)
T2050 001:049.951 - 2.747ms returns 0x184
T2050 001:049.986 JLINK_WriteReg(R0, 0x08001400)
T2050 001:049.998 - 0.016ms returns 0x00
T2050 001:050.007 JLINK_WriteReg(R1, 0x00000400)
T2050 001:050.015 - 0.011ms returns 0x00
T2050 001:050.024 JLINK_WriteReg(R2, 0x20000184)
T2050 001:050.031 - 0.011ms returns 0x00
T2050 001:050.045 JLINK_WriteReg(R3, 0x00000000)
T2050 001:050.054 - 0.012ms returns 0x00
T2050 001:050.131 JLINK_WriteReg(R4, 0x00000000)
T2050 001:050.141 - 0.013ms returns 0x00
T2050 001:050.150 JLINK_WriteReg(R5, 0x00000000)
T2050 001:050.157 - 0.011ms returns 0x00
T2050 001:050.166 JLINK_WriteReg(R6, 0x00000000)
T2050 001:050.175 - 0.012ms returns 0x00
T2050 001:050.184 JLINK_WriteReg(R7, 0x00000000)
T2050 001:050.192 - 0.011ms returns 0x00
T2050 001:050.201 JLINK_WriteReg(R8, 0x00000000)
T2050 001:050.208 - 0.011ms returns 0x00
T2050 001:050.217 JLINK_WriteReg(R9, 0x20000180)
T2050 001:050.225 - 0.010ms returns 0x00
T2050 001:050.234 JLINK_WriteReg(R10, 0x00000000)
T2050 001:050.242 - 0.012ms returns 0x00
T2050 001:050.251 JLINK_WriteReg(R11, 0x00000000)
T2050 001:050.259 - 0.011ms returns 0x00
T2050 001:050.268 JLINK_WriteReg(R12, 0x00000000)
T2050 001:050.275 - 0.011ms returns 0x00
T2050 001:050.284 JLINK_WriteReg(R13 (SP), 0x20001000)
T2050 001:050.293 - 0.011ms returns 0x00
T2050 001:050.302 JLINK_WriteReg(R14, 0x20000001)
T2050 001:050.309 - 0.011ms returns 0x00
T2050 001:050.318 JLINK_WriteReg(R15 (PC), 0x2000010C)
T2050 001:050.326 - 0.011ms returns 0x00
T2050 001:050.335 JLINK_WriteReg(XPSR, 0x01000000)
T2050 001:050.343 - 0.012ms returns 0x00
T2050 001:050.360 JLINK_WriteReg(MSP, 0x20001000)
T2050 001:050.371 - 0.014ms returns 0x00
T2050 001:050.380 JLINK_WriteReg(PSP, 0x20001000)
T2050 001:050.388 - 0.011ms returns 0x00
T2050 001:050.398 JLINK_WriteReg(CFBP, 0x00000000)
T2050 001:050.405 - 0.011ms returns 0x00
T2050 001:050.416   JLINK_SetBPEx(Addr = 0x20000000, Type = 0xFFFFFFF2)
T2050 001:050.429 - 0.017ms returns 0x0000000B
T2050 001:050.439 JLINK_Go()
T2050 001:050.456    -- CPU_ReadMem(4 bytes @ 0xE0001000)
T2050 001:054.135 - 3.711ms
T2050 001:054.161 JLINK_IsHalted()
T2050 001:054.683 - 0.532ms returns FALSE
T2050 001:072.503 JLINK_IsHalted()
T2050 001:075.525    -- CPU_ReadMem(2 bytes @ 0x20000000)
T2050 001:076.085 - 3.602ms returns TRUE
T2050 001:076.125 JLINK_ReadReg(R15 (PC))
T2050 001:076.138 - 0.017ms returns 0x20000000
T2050 001:076.148 JLINK_ClrBPEx(BPHandle = 0x0000000B)
T2050 001:076.156 - 0.012ms returns 0x00
T2050 001:076.229 JLINK_ReadReg(R0)
T2050 001:076.247 - 0.022ms returns 0x00000000
T2050 001:076.919 JLINK_WriteMem(0x20000184, 0x027C Bytes, ...)
T2050 001:076.939   Data:  20 46 02 D0 FF F7 28 FF 04 E0 00 F0 A7 F8 20 46 ...
T2050 001:076.961    -- CPU_WriteMem(636 bytes @ 0x20000184)
T2050 001:080.730 - 3.827ms returns 0x27C
T2050 001:080.756 JLINK_WriteMem(0x20000400, 0x0184 Bytes, ...)
T2050 001:080.765   Data:  84 F8 3D 00 00 20 10 BD 70 47 70 47 00 68 03 49 ...
T2050 001:080.784    -- CPU_WriteMem(388 bytes @ 0x20000400)
T2050 001:083.388 - 2.645ms returns 0x184
T2050 001:083.417 JLINK_WriteReg(R0, 0x08001800)
T2050 001:083.431 - 0.018ms returns 0x00
T2050 001:083.441 JLINK_WriteReg(R1, 0x00000400)
T2050 001:083.450 - 0.012ms returns 0x00
T2050 001:083.460 JLINK_WriteReg(R2, 0x20000184)
T2050 001:083.468 - 0.012ms returns 0x00
T2050 001:083.478 JLINK_WriteReg(R3, 0x00000000)
T2050 001:083.486 - 0.012ms returns 0x00
